T18FC 6613:891 SEGGER J-Link V6.30h Log File (0000ms, 10436ms total)
T18FC 6613:891 DLL Compiled: Mar 16 2018 18:02:51 (0000ms, 10436ms total)
T18FC 6613:891 Logging started @ 2020-05-21 10:40 (0000ms, 10436ms total)
T18FC 6613:891 JLINK_SetWarnOutHandler(...) (0000ms, 10436ms total)
T18FC 6613:891 JLINK_OpenEx(...)
Firmware: J-Link V9 compiled Dec 13 2019 11:14:50
Hardware: V9.70
S/N: 59701278
Feature(s): RDI, GDB, FlashDL, FlashBP, JFlash
TELNET listener socket opened on port 19021WEBSRV 
Starting webserver (0118ms, 10554ms total)
T18FC 6613:891 WEBSRV Webserver running on local port 19080 (0118ms, 10554ms total)
T18FC 6613:891   returns O.K. (0118ms, 10554ms total)
T18FC 6614:009 JLINK_GetEmuCaps()  returns 0xB9FF7BBF (0000ms, 10554ms total)
T18FC 6614:010 JLINK_TIF_GetAvailable(...) (0000ms, 10554ms total)
T18FC 6614:010 JLINK_SetErrorOutHandler(...) (0000ms, 10554ms total)
T18FC 6614:010 JLINK_ExecCommand("ProjectFile = "C:\Users\200422013\Desktop\º£ÍâµÙÉ­\LPC11C14_APP\Keil\JLinkSettings.ini"", ...).   returns 0x00 (0002ms, 10556ms total)
T18FC 6614:015 JLINK_ExecCommand("Device = LPC11C14FBD48/301", ...). Device "LPC11C14/301" selected.  returns 0x00 (0005ms, 10561ms total)
T18FC 6614:020 JLINK_ExecCommand("DisableConnectionTimeout", ...).   returns 0x01 (0000ms, 10561ms total)
T18FC 6614:020 JLINK_GetHardwareVersion()  returns 0x17AE8 (0000ms, 10561ms total)
T18FC 6614:020 JLINK_GetDLLVersion()  returns 63008 (0000ms, 10561ms total)
T18FC 6614:020 JLINK_GetFirmwareString(...) (0000ms, 10561ms total)
T18FC 6614:029 JLINK_GetDLLVersion()  returns 63008 (0000ms, 10561ms total)
T18FC 6614:029 JLINK_GetCompileDateTime() (0000ms, 10561ms total)
T18FC 6614:032 JLINK_GetFirmwareString(...) (0000ms, 10561ms total)
T18FC 6614:035 JLINK_GetHardwareVersion()  returns 0x17AE8 (0000ms, 10561ms total)
T18FC 6614:043 JLINK_TIF_Select(JLINKARM_TIF_SWD)  returns 0x00 (0002ms, 10563ms total)
T18FC 6614:045 JLINK_SetSpeed(5000) (0000ms, 10563ms total)
T18FC 6614:045 JLINK_GetId() >0x10B TIF>Found SW-DP with ID 0x0BB11477 >0x0D TIF> >0x28 TIF> >0x0D TIF> >0x28 TIF> >0x0D TIF> >0x28 TIF> >0x0D TIF> >0x28 TIF> >0x0D TIF> >0x21 TIF> >0x0D TIF> >0x28 TIF>Scanning AP map to find all available APs >0x0D TIF> >0x28 TIF> >0x0D TIF> >0x21 TIF> >0x0D TIF> >0x21 TIF> >0x0D TIF> >0x28 TIF> >0x0D TIF> >0x21 TIF> >0x0D TIF> >0x21 TIF>AP[1]: Stopped AP scan as end of AP map has been reachedAP[0]: AHB-AP (IDR: 0x04770021)Iterating through AP map to find AHB-AP to use
 >0x42 TIF> >0x28 TIF> >0x0D TIF> >0x28 TIF> >0x0D TIF> >0x21 TIF> >0x0D TIF> >0x21 TIF> >0x42 TIF> >0x28 TIF> >0x0D TIF> >0x28 TIF> >0x0D TIF> >0x28 TIF> >0x0D TIF> >0x21 TIF> >0x0D TIF> >0x21 TIF>AP[0]: Core foundAP[0]: AHB-AP ROM base: 0xE00FF000 >0x0D TIF> >0x28 TIF> >0x0D TIF> >0x28 TIF> >0x0D TIF> >0x28 TIF> >0x0D TIF> >0x21 TIF> >0x0D TIF> >0x21 TIF>CPUID register: 0x410CC200. Implementer code: 0x41 (ARM)Found Cortex-M0 r0p0, Little endian. -- CPU_ReadMem(4 bytes @ 0xE000EDF0)
 -- CPU_WriteMem(4 bytes @ 0xE000EDF0) -- CPU_ReadMem(4 bytes @ 0xE0002000)FPUnit: 4 code (BP) slots and 0 literal slots -- CPU_ReadMem(4 bytes @ 0xE000EDFC) -- CPU_WriteMem(4 bytes @ 0xE000EDFC) -- CPU_ReadMem(4 bytes @ 0xE0001000) -- CPU_WriteMem(4 bytes @ 0xE0001000)CoreSight components:ROMTbl[0] @ E00FF000 -- CPU_ReadMem(16 bytes @ 0xE00FF000) -- CPU_ReadMem(16 bytes @ 0xE000EFF0) -- CPU_ReadMem(16 bytes @ 0xE000EFE0)ROMTbl[0][0]: E000E000, CID: B105E00D, PID: 000BB008 SCS
 -- CPU_ReadMem(16 bytes @ 0xE0001FF0) -- CPU_ReadMem(16 bytes @ 0xE0001FE0)ROMTbl[0][1]: E0001000, CID: B105E00D, PID: 000BB00A DWT -- CPU_ReadMem(16 bytes @ 0xE0002FF0) -- CPU_ReadMem(16 bytes @ 0xE0002FE0)ROMTbl[0][2]: E0002000, CID: B105E00D, PID: 000BB00B FPB >0x0D TIF> >0x21 TIF>  returns 0x0BB11477 (0163ms, 10726ms total)
T18FC 6614:209 JLINK_GetDLLVersion()  returns 63008 (0000ms, 10726ms total)
T18FC 6614:209 JLINK_CORE_GetFound()  returns 0x60000FF (0000ms, 10726ms total)
T18FC 6614:209 JLINK_GetDebugInfo(0x100 = JLINKARM_ROM_TABLE_ADDR_INDEX) -- Value=0xE00FF000  returns 0x00 (0000ms, 10726ms total)
T18FC 6614:211 JLINK_GetDebugInfo(0x100 = JLINKARM_ROM_TABLE_ADDR_INDEX) -- Value=0xE00FF000  returns 0x00 (0000ms, 10726ms total)
T18FC 6614:211 JLINK_GetDebugInfo(0x101 = JLINKARM_DEBUG_INFO_ETM_ADDR_INDEX) -- Value=0x00000000  returns 0x00 (0000ms, 10726ms total)
T18FC 6614:211 JLINK_ReadMemEx(0xE0041FF0, 0x0010 Bytes, ..., Flags = 0x02000004) -- CPU_ReadMem(16 bytes @ 0xE0041FF0) - Data: 00 00 00 00 00 00 00 00 00 00 00 00 00 00 00 00  returns 0x10 (0000ms, 10726ms total)
T18FC 6614:211 JLINK_GetDebugInfo(0x102 = JLINKARM_DEBUG_INFO_MTB_ADDR_INDEX) -- Value=0x00000000  returns 0x00 (0000ms, 10726ms total)
T18FC 6614:211 JLINK_GetDebugInfo(0x103 = JLINKARM_DEBUG_INFO_TPIU_ADDR_INDEX) -- Value=0x00000000  returns 0x00 (0000ms, 10726ms total)
T18FC 6614:211 JLINK_ReadMemEx(0xE0040FF0, 0x0010 Bytes, ..., Flags = 0x02000004) -- CPU_ReadMem(16 bytes @ 0xE0040FF0) - Data: 00 00 00 00 00 00 00 00 00 00 00 00 00 00 00 00  returns 0x10 (0001ms, 10727ms total)
T18FC 6614:212 JLINK_GetDebugInfo(0x104 = JLINKARM_DEBUG_INFO_ITM_ADDR_INDEX) -- Value=0xE0000000  returns 0x00 (0000ms, 10727ms total)
T18FC 6614:212 JLINK_GetDebugInfo(0x105 = JLINKARM_DEBUG_INFO_DWT_ADDR_INDEX) -- Value=0xE0001000  returns 0x00 (0000ms, 10727ms total)
T18FC 6614:212 JLINK_GetDebugInfo(0x106 = JLINKARM_DEBUG_INFO_FPB_ADDR_INDEX) -- Value=0xE0002000  returns 0x00 (0000ms, 10727ms total)
T18FC 6614:212 JLINK_GetDebugInfo(0x107 = JLINKARM_DEBUG_INFO_NVIC_ADDR_INDEX) -- Value=0xE000E000  returns 0x00 (0000ms, 10727ms total)
T18FC 6614:212 JLINK_GetDebugInfo(0x10C = JLINKARM_DEBUG_INFO_DBG_ADDR_INDEX) -- Value=0xE000EDF0  returns 0x00 (0000ms, 10727ms total)
T18FC 6614:212 JLINK_GetDebugInfo(0x01 = Unknown) -- Value=0x00000000  returns 0x00 (0000ms, 10727ms total)
T18FC 6614:212 JLINK_ReadMemU32(0xE000ED00, 0x0001 Items, ...) -- CPU_ReadMem(4 bytes @ 0xE000ED00) - Data: 00 C2 0C 41  returns 0x01 (0001ms, 10728ms total)
T18FC 6614:213 JLINK_GetDebugInfo(0x10F = JLINKARM_DEBUG_INFO_HAS_CORTEX_M_SECURITY_EXT_INDEX) -- Value=0x00000000  returns 0x00 (0000ms, 10728ms total)
T18FC 6614:213 JLINK_SetResetType(JLINKARM_CM3_RESET_TYPE_NORMAL)  returns JLINKARM_CM3_RESET_TYPE_NORMAL (0000ms, 10728ms total)
T18FC 6614:213 JLINK_Reset() -- CPU is running -- CPU_WriteMem(4 bytes @ 0xE000EDF0) -- CPU is running -- CPU_WriteMem(4 bytes @ 0xE000EDFC)Reset: Halt core after reset via DEMCR.VC_CORERESET. >0x35 TIF>Reset: Reset device via AIRCR.SYSRESETREQ. -- CPU is running -- CPU_WriteMem(4 bytes @ 0xE000ED0C) >0x0D TIF> >0x28 TIF> -- CPU_ReadMem(4 bytes @ 0xE000EDF0) -- CPU_ReadMem(4 bytes @ 0xE000EDF0) -- CPU is running -- CPU_WriteMem(4 bytes @ 0xE000EDF0) -- CPU is running -- CPU_WriteMem(4 bytes @ 0xE000EDFC)
 -- CPU_ReadMem(4 bytes @ 0xE000EDF0) -- CPU_WriteMem(4 bytes @ 0xE000EDFC) -- CPU_WriteMem(4 bytes @ 0xE000EDFC) -- CPU_WriteMem(4 bytes @ 0xE000EDFC) -- CPU_WriteMem(4 bytes @ 0xE0001020) -- CPU_WriteMem(4 bytes @ 0xE0001024) -- CPU_WriteMem(4 bytes @ 0xE0001028) -- CPU_ReadMem(4 bytes @ 0xE0001000) -- CPU_WriteMem(4 bytes @ 0xE0001000) -- CPU_WriteMem(4 bytes @ 0xE000EDFC) -- CPU_WriteMem(4 bytes @ 0xE0001028) -- CPU_ReadMem(4 bytes @ 0x00000004) -- CPU_ReadMem(4 bytes @ 0xE0002000)
 -- CPU_ReadMem(4 bytes @ 0xE0002008) -- CPU_ReadMem(4 bytes @ 0xE000200C) -- CPU_ReadMem(4 bytes @ 0xE0002010) -- CPU_ReadMem(4 bytes @ 0xE0002014) -- CPU_WriteMem(4 bytes @ 0xE0002000) -- CPU_WriteMem(4 bytes @ 0xE0002008) -- CPU_WriteMem(4 bytes @ 0xE000200C) -- CPU_WriteMem(4 bytes @ 0xE0002010) -- CPU_WriteMem(4 bytes @ 0xE0002014) -- CPU_ReadMem(4 bytes @ 0xE0001000) -- CPU_WriteMem(4 bytes @ 0xE0001000) -- CPU_WriteMem(4 bytes @ 0xE0002000) -- CPU_WriteMem(4 bytes @ 0xE0002008)
 -- CPU_WriteMem(4 bytes @ 0xE000200C) -- CPU_WriteMem(4 bytes @ 0xE0002010) -- CPU_WriteMem(4 bytes @ 0xE0002014) -- CPU_WriteMem(4 bytes @ 0xE0002000) -- CPU_ReadMem(4 bytes @ 0xE000EDFC) -- CPU_ReadMem(4 bytes @ 0xE0001000) -- CPU_WriteMem(4 bytes @ 0xE0001000) (0291ms, 11019ms total)
T18FC 6614:505 JLINK_Halt()  returns 0x00 (0000ms, 11019ms total)
T18FC 6614:505 JLINK_ReadMemU32(0xE000EDF0, 0x0001 Items, ...) -- CPU_ReadMem(4 bytes @ 0xE000EDF0) - Data: 03 00 03 00  returns 0x01 (0000ms, 11019ms total)
T18FC 6614:505 JLINK_WriteU32(0xE000EDF0, 0xA05F0003) -- CPU_WriteMem(4 bytes @ 0xE000EDF0)  returns 0x00 (0001ms, 11020ms total)
T18FC 6614:506 JLINK_WriteU32(0xE000EDFC, 0x01000000) -- CPU_WriteMem(4 bytes @ 0xE000EDFC)  returns 0x00 (0000ms, 11020ms total)
T18FC 6614:515 JLINK_GetHWStatus(...)  returns 0x00 (0000ms, 11020ms total)
T18FC 6614:524 JLINK_GetNumBPUnits(Type = 0xFFFFFF00)  returns 0x04 (0000ms, 11020ms total)
T18FC 6614:524 JLINK_GetNumBPUnits(Type = 0xF0)  returns 0x2000 (0000ms, 11020ms total)
T18FC 6614:524 JLINK_GetNumWPUnits()  returns 0x02 (0000ms, 11020ms total)
T18FC 6614:530 JLINK_GetSpeed()  returns 0xFA0 (0000ms, 11020ms total)
T18FC 6614:538 JLINK_ReadMemU32(0xE000E004, 0x0001 Items, ...) -- CPU_ReadMem(4 bytes @ 0xE000E004) - Data: 00 00 00 00  returns 0x01 (0000ms, 11020ms total)
T18FC 6614:538 JLINK_Halt()  returns 0x00 (0000ms, 11020ms total)
T18FC 6614:538 JLINK_IsHalted()  returns TRUE (0000ms, 11020ms total)
T18FC 6614:541 JLINK_WriteMem(0x10000000, 0x0170 Bytes, ...) - Data: 00 BE 0A E0 0D 78 2D 06 68 40 08 24 40 00 00 D3 ... -- CPU_WriteMem(368 bytes @ 0x10000000)  returns 0x170 (0003ms, 11023ms total)
T18FC 6614:544 JLINK_WriteReg(R0, 0x00000000)  returns 0x00 (0000ms, 11023ms total)
T18FC 6614:544 JLINK_WriteReg(R1, 0x00B71B00)  returns 0x00 (0000ms, 11023ms total)
T18FC 6614:544 JLINK_WriteReg(R2, 0x00000001)  returns 0x00 (0000ms, 11023ms total)
T18FC 6614:544 JLINK_WriteReg(R3, 0x00000000)  returns 0x00 (0000ms, 11023ms total)
T18FC 6614:544 JLINK_WriteReg(R4, 0x00000000)  returns 0x00 (0000ms, 11023ms total)
T18FC 6614:544 JLINK_WriteReg(R5, 0x00000000)  returns 0x00 (0000ms, 11023ms total)
T18FC 6614:544 JLINK_WriteReg(R6, 0x00000000)  returns 0x00 (0000ms, 11023ms total)
T18FC 6614:544 JLINK_WriteReg(R7, 0x00000000)  returns 0x00 (0000ms, 11023ms total)
T18FC 6614:544 JLINK_WriteReg(R8, 0x00000000)  returns 0x00 (0000ms, 11023ms total)
T18FC 6614:544 JLINK_WriteReg(R9, 0x10000168)  returns 0x00 (0000ms, 11023ms total)
T18FC 6614:544 JLINK_WriteReg(R10, 0x00000000)  returns 0x00 (0000ms, 11023ms total)
T18FC 6614:544 JLINK_WriteReg(R11, 0x00000000)  returns 0x00 (0000ms, 11023ms total)
T18FC 6614:544 JLINK_WriteReg(R12, 0x00000000)  returns 0x00 (0000ms, 11023ms total)
T18FC 6614:544 JLINK_WriteReg(R13 (SP), 0x10000800)  returns 0x00 (0000ms, 11023ms total)
T18FC 6614:544 JLINK_WriteReg(R14, 0x10000001)  returns 0x00 (0000ms, 11023ms total)
T18FC 6614:544 JLINK_WriteReg(R15 (PC), 0x1000003C)  returns 0x00 (0000ms, 11023ms total)
T18FC 6614:544 JLINK_WriteReg(XPSR, 0x01000000)  returns 0x00 (0000ms, 11023ms total)
T18FC 6614:544 JLINK_WriteReg(MSP, 0x10000800)  returns 0x00 (0000ms, 11023ms total)
T18FC 6614:544 JLINK_WriteReg(PSP, 0x10000800)  returns 0x00 (0000ms, 11023ms total)
T18FC 6614:544 JLINK_WriteReg(CFBP, 0x00000000)  returns 0x00 (0000ms, 11023ms total)
T18FC 6614:544 JLINK_SetBPEx(Addr = 0x10000000, Type = 0xFFFFFFF2)  returns 0x00000001 (0000ms, 11023ms total)
T18FC 6614:544 JLINK_Go() -- CPU_WriteMem(4 bytes @ 0xE0002000) -- CPU_ReadMem(4 bytes @ 0xE0001000) -- CPU_WriteMem(4 bytes @ 0xE0001000) -- CPU_WriteMem(4 bytes @ 0xE0002008) -- CPU_WriteMem(4 bytes @ 0xE000200C) -- CPU_WriteMem(4 bytes @ 0xE0002010) -- CPU_WriteMem(4 bytes @ 0xE0002014) -- CPU_WriteMem(4 bytes @ 0xE0001004) (0005ms, 11028ms total)
T18FC 6614:549 JLINK_IsHalted()  returns TRUE (0002ms, 11030ms total)
T18FC 6614:551 JLINK_ReadReg(R15 (PC))  returns 0x10000000 (0000ms, 11028ms total)
T18FC 6614:551 JLINK_ClrBPEx(BPHandle = 0x00000001)  returns 0x00 (0000ms, 11028ms total)
T18FC 6614:551 JLINK_ReadReg(R0)  returns 0x00000000 (0000ms, 11028ms total)
T18FC 6614:551 JLINK_WriteReg(R0, 0x00000000)  returns 0x00 (0000ms, 11028ms total)
T18FC 6614:551 JLINK_WriteReg(R1, 0x00001000)  returns 0x00 (0000ms, 11028ms total)
T18FC 6614:551 JLINK_WriteReg(R2, 0x000000FF)  returns 0x00 (0000ms, 11028ms total)
T18FC 6614:551 JLINK_WriteReg(R3, 0x00000000)  returns 0x00 (0000ms, 11028ms total)
T18FC 6614:551 JLINK_WriteReg(R4, 0x00000000)  returns 0x00 (0000ms, 11028ms total)
T18FC 6614:551 JLINK_WriteReg(R5, 0x00000000)  returns 0x00 (0000ms, 11028ms total)
T18FC 6614:551 JLINK_WriteReg(R6, 0x00000000)  returns 0x00 (0000ms, 11028ms total)
T18FC 6614:551 JLINK_WriteReg(R7, 0x00000000)  returns 0x00 (0001ms, 11029ms total)
T18FC 6614:552 JLINK_WriteReg(R8, 0x00000000)  returns 0x00 (0000ms, 11029ms total)
T18FC 6614:552 JLINK_WriteReg(R9, 0x10000168)  returns 0x00 (0000ms, 11029ms total)
T18FC 6614:552 JLINK_WriteReg(R10, 0x00000000)  returns 0x00 (0000ms, 11029ms total)
T18FC 6614:552 JLINK_WriteReg(R11, 0x00000000)  returns 0x00 (0000ms, 11029ms total)
T18FC 6614:552 JLINK_WriteReg(R12, 0x00000000)  returns 0x00 (0000ms, 11029ms total)
T18FC 6614:552 JLINK_WriteReg(R13 (SP), 0x10000800)  returns 0x00 (0000ms, 11029ms total)
T18FC 6614:552 JLINK_WriteReg(R14, 0x10000001)  returns 0x00 (0000ms, 11029ms total)
T18FC 6614:552 JLINK_WriteReg(R15 (PC), 0x10000020)  returns 0x00 (0000ms, 11029ms total)
T18FC 6614:552 JLINK_WriteReg(XPSR, 0x01000000)  returns 0x00 (0000ms, 11029ms total)
T18FC 6614:552 JLINK_WriteReg(MSP, 0x10000800)  returns 0x00 (0000ms, 11029ms total)
T18FC 6614:552 JLINK_WriteReg(PSP, 0x10000800)  returns 0x00 (0000ms, 11029ms total)
T18FC 6614:552 JLINK_WriteReg(CFBP, 0x00000000)  returns 0x00 (0000ms, 11029ms total)
T18FC 6614:552 JLINK_SetBPEx(Addr = 0x10000000, Type = 0xFFFFFFF2)  returns 0x00000002 (0000ms, 11029ms total)
T18FC 6614:552 JLINK_Go() -- CPU_WriteMem(4 bytes @ 0xE0002000) -- CPU_ReadMem(4 bytes @ 0xE0001000) -- CPU_WriteMem(4 bytes @ 0xE0001000) (0003ms, 11032ms total)
T18FC 6614:555 JLINK_IsHalted()  returns TRUE (0002ms, 11034ms total)
T18FC 6614:557 JLINK_ReadReg(R15 (PC))  returns 0x10000000 (0000ms, 11032ms total)
T18FC 6614:557 JLINK_ClrBPEx(BPHandle = 0x00000002)  returns 0x00 (0000ms, 11032ms total)
T18FC 6614:557 JLINK_ReadReg(R0)  returns 0x00000001 (0000ms, 11032ms total)
T18FC 6614:557 JLINK_WriteReg(R0, 0x00000000)  returns 0x00 (0000ms, 11032ms total)
T18FC 6614:557 JLINK_WriteReg(R1, 0x00001000)  returns 0x00 (0000ms, 11032ms total)
T18FC 6614:557 JLINK_WriteReg(R2, 0x000000FF)  returns 0x00 (0000ms, 11032ms total)
T18FC 6614:557 JLINK_WriteReg(R3, 0x00000000)  returns 0x00 (0000ms, 11032ms total)
T18FC 6614:557 JLINK_WriteReg(R4, 0x00000000)  returns 0x00 (0000ms, 11032ms total)
T18FC 6614:557 JLINK_WriteReg(R5, 0x00000000)  returns 0x00 (0000ms, 11032ms total)
T18FC 6614:557 JLINK_WriteReg(R6, 0x00000000)  returns 0x00 (0000ms, 11032ms total)
T18FC 6614:557 JLINK_WriteReg(R7, 0x00000000)  returns 0x00 (0000ms, 11032ms total)
T18FC 6614:557 JLINK_WriteReg(R8, 0x00000000)  returns 0x00 (0000ms, 11032ms total)
T18FC 6614:557 JLINK_WriteReg(R9, 0x10000168)  returns 0x00 (0000ms, 11032ms total)
T18FC 6614:557 JLINK_WriteReg(R10, 0x00000000)  returns 0x00 (0000ms, 11032ms total)
T18FC 6614:557 JLINK_WriteReg(R11, 0x00000000)  returns 0x00 (0001ms, 11033ms total)
T18FC 6614:558 JLINK_WriteReg(R12, 0x00000000)  returns 0x00 (0000ms, 11033ms total)
T18FC 6614:558 JLINK_WriteReg(R13 (SP), 0x10000800)  returns 0x00 (0000ms, 11033ms total)
T18FC 6614:558 JLINK_WriteReg(R14, 0x10000001)  returns 0x00 (0000ms, 11033ms total)
T18FC 6614:558 JLINK_WriteReg(R15 (PC), 0x100000A4)  returns 0x00 (0000ms, 11033ms total)
T18FC 6614:558 JLINK_WriteReg(XPSR, 0x01000000)  returns 0x00 (0000ms, 11033ms total)
T18FC 6614:558 JLINK_WriteReg(MSP, 0x10000800)  returns 0x00 (0000ms, 11033ms total)
T18FC 6614:558 JLINK_WriteReg(PSP, 0x10000800)  returns 0x00 (0000ms, 11033ms total)
T18FC 6614:558 JLINK_WriteReg(CFBP, 0x00000000)  returns 0x00 (0000ms, 11033ms total)
T18FC 6614:558 JLINK_SetBPEx(Addr = 0x10000000, Type = 0xFFFFFFF2)  returns 0x00000003 (0000ms, 11033ms total)
T18FC 6614:558 JLINK_Go() -- CPU_WriteMem(4 bytes @ 0xE0002000) -- CPU_ReadMem(4 bytes @ 0xE0001000) -- CPU_WriteMem(4 bytes @ 0xE0001000) (0002ms, 11035ms total)
T18FC 6614:560 JLINK_IsHalted()  returns FALSE (0000ms, 11035ms total)
T18FC 6614:688 JLINK_IsHalted()  returns TRUE (0002ms, 11037ms total)
T18FC 6614:690 JLINK_ReadReg(R15 (PC))  returns 0x10000000 (0000ms, 11035ms total)
T18FC 6614:690 JLINK_ClrBPEx(BPHandle = 0x00000003)  returns 0x00 (0000ms, 11035ms total)
T18FC 6614:690 JLINK_ReadReg(R0)  returns 0x00000000 (0000ms, 11035ms total)
T18FC 6614:690 JLINK_WriteReg(R0, 0x00001000)  returns 0x00 (0000ms, 11035ms total)
T18FC 6614:690 JLINK_WriteReg(R1, 0x00001000)  returns 0x00 (0000ms, 11035ms total)
T18FC 6614:690 JLINK_WriteReg(R2, 0x000000FF)  returns 0x00 (0000ms, 11035ms total)
T18FC 6614:690 JLINK_WriteReg(R3, 0x00000000)  returns 0x00 (0000ms, 11035ms total)
T18FC 6614:690 JLINK_WriteReg(R4, 0x00000000)  returns 0x00 (0000ms, 11035ms total)
T18FC 6614:690 JLINK_WriteReg(R5, 0x00000000)  returns 0x00 (0000ms, 11035ms total)
T18FC 6614:691 JLINK_WriteReg(R6, 0x00000000)  returns 0x00 (0000ms, 11036ms total)
T18FC 6614:691 JLINK_WriteReg(R7, 0x00000000)  returns 0x00 (0000ms, 11036ms total)
T18FC 6614:691 JLINK_WriteReg(R8, 0x00000000)  returns 0x00 (0000ms, 11036ms total)
T18FC 6614:691 JLINK_WriteReg(R9, 0x10000168)  returns 0x00 (0000ms, 11036ms total)
T18FC 6614:691 JLINK_WriteReg(R10, 0x00000000)  returns 0x00 (0000ms, 11036ms total)
T18FC 6614:691 JLINK_WriteReg(R11, 0x00000000)  returns 0x00 (0000ms, 11036ms total)
T18FC 6614:691 JLINK_WriteReg(R12, 0x00000000)  returns 0x00 (0000ms, 11036ms total)
T18FC 6614:691 JLINK_WriteReg(R13 (SP), 0x10000800)  returns 0x00 (0000ms, 11036ms total)
T18FC 6614:691 JLINK_WriteReg(R14, 0x10000001)  returns 0x00 (0000ms, 11036ms total)
T18FC 6614:691 JLINK_WriteReg(R15 (PC), 0x10000020)  returns 0x00 (0000ms, 11036ms total)
T18FC 6614:691 JLINK_WriteReg(XPSR, 0x01000000)  returns 0x00 (0000ms, 11036ms total)
T18FC 6614:691 JLINK_WriteReg(MSP, 0x10000800)  returns 0x00 (0000ms, 11036ms total)
T18FC 6614:691 JLINK_WriteReg(PSP, 0x10000800)  returns 0x00 (0000ms, 11036ms total)
T18FC 6614:691 JLINK_WriteReg(CFBP, 0x00000000)  returns 0x00 (0000ms, 11036ms total)
T18FC 6614:691 JLINK_SetBPEx(Addr = 0x10000000, Type = 0xFFFFFFF2)  returns 0x00000004 (0000ms, 11036ms total)
T18FC 6614:691 JLINK_Go() -- CPU_WriteMem(4 bytes @ 0xE0002000) -- CPU_ReadMem(4 bytes @ 0xE0001000) -- CPU_WriteMem(4 bytes @ 0xE0001000) (0003ms, 11039ms total)
T18FC 6614:694 JLINK_IsHalted()  returns TRUE (0002ms, 11041ms total)
T18FC 6614:696 JLINK_ReadReg(R15 (PC))  returns 0x10000000 (0000ms, 11039ms total)
T18FC 6614:696 JLINK_ClrBPEx(BPHandle = 0x00000004)  returns 0x00 (0000ms, 11039ms total)
T18FC 6614:696 JLINK_ReadReg(R0)  returns 0x00000001 (0000ms, 11039ms total)
T18FC 6614:696 JLINK_WriteReg(R0, 0x00001000)  returns 0x00 (0000ms, 11039ms total)
T18FC 6614:696 JLINK_WriteReg(R1, 0x00001000)  returns 0x00 (0000ms, 11039ms total)
T18FC 6614:696 JLINK_WriteReg(R2, 0x000000FF)  returns 0x00 (0000ms, 11039ms total)
T18FC 6614:696 JLINK_WriteReg(R3, 0x00000000)  returns 0x00 (0000ms, 11039ms total)
T18FC 6614:696 JLINK_WriteReg(R4, 0x00000000)  returns 0x00 (0000ms, 11039ms total)
T18FC 6614:696 JLINK_WriteReg(R5, 0x00000000)  returns 0x00 (0000ms, 11039ms total)
T18FC 6614:696 JLINK_WriteReg(R6, 0x00000000)  returns 0x00 (0000ms, 11039ms total)
T18FC 6614:696 JLINK_WriteReg(R7, 0x00000000)  returns 0x00 (0000ms, 11039ms total)
T18FC 6614:696 JLINK_WriteReg(R8, 0x00000000)  returns 0x00 (0000ms, 11039ms total)
T18FC 6614:696 JLINK_WriteReg(R9, 0x10000168)  returns 0x00 (0001ms, 11040ms total)
T18FC 6614:697 JLINK_WriteReg(R10, 0x00000000)  returns 0x00 (0000ms, 11040ms total)
T18FC 6614:697 JLINK_WriteReg(R11, 0x00000000)  returns 0x00 (0000ms, 11040ms total)
T18FC 6614:697 JLINK_WriteReg(R12, 0x00000000)  returns 0x00 (0000ms, 11040ms total)
T18FC 6614:697 JLINK_WriteReg(R13 (SP), 0x10000800)  returns 0x00 (0000ms, 11040ms total)
T18FC 6614:697 JLINK_WriteReg(R14, 0x10000001)  returns 0x00 (0000ms, 11040ms total)
T18FC 6614:697 JLINK_WriteReg(R15 (PC), 0x100000A4)  returns 0x00 (0000ms, 11040ms total)
T18FC 6614:697 JLINK_WriteReg(XPSR, 0x01000000)  returns 0x00 (0000ms, 11040ms total)
T18FC 6614:697 JLINK_WriteReg(MSP, 0x10000800)  returns 0x00 (0000ms, 11040ms total)
T18FC 6614:697 JLINK_WriteReg(PSP, 0x10000800)  returns 0x00 (0000ms, 11040ms total)
T18FC 6614:697 JLINK_WriteReg(CFBP, 0x00000000)  returns 0x00 (0000ms, 11040ms total)
T18FC 6614:697 JLINK_SetBPEx(Addr = 0x10000000, Type = 0xFFFFFFF2)  returns 0x00000005 (0000ms, 11040ms total)
T18FC 6614:697 JLINK_Go() -- CPU_WriteMem(4 bytes @ 0xE0002000) -- CPU_ReadMem(4 bytes @ 0xE0001000) -- CPU_WriteMem(4 bytes @ 0xE0001000) (0002ms, 11042ms total)
T18FC 6614:699 JLINK_IsHalted()  returns FALSE (0001ms, 11043ms total)
T18FC 6614:716 JLINK_IsHalted()  returns FALSE (0000ms, 11042ms total)
T18FC 6614:718 JLINK_IsHalted()  returns FALSE (0000ms, 11042ms total)
T18FC 6614:720 JLINK_IsHalted()  returns FALSE (0000ms, 11042ms total)
T18FC 6614:729 JLINK_IsHalted()  returns FALSE (0000ms, 11042ms total)
T18FC 6614:731 JLINK_IsHalted()  returns FALSE (0000ms, 11042ms total)
T18FC 6614:733 JLINK_IsHalted()  returns FALSE (0000ms, 11042ms total)
T18FC 6614:735 JLINK_IsHalted()  returns FALSE (0000ms, 11042ms total)
T18FC 6614:737 JLINK_IsHalted()  returns FALSE (0000ms, 11042ms total)
T18FC 6614:739 JLINK_IsHalted()  returns FALSE (0000ms, 11042ms total)
T18FC 6614:741 JLINK_IsHalted()  returns FALSE (0000ms, 11042ms total)
T18FC 6614:743 JLINK_IsHalted()  returns FALSE (0000ms, 11042ms total)
T18FC 6614:752 JLINK_IsHalted()  returns FALSE (0000ms, 11042ms total)
T18FC 6614:761 JLINK_IsHalted()  returns FALSE (0000ms, 11042ms total)
T18FC 6614:763 JLINK_IsHalted()  returns FALSE (0000ms, 11042ms total)
T18FC 6614:765 JLINK_IsHalted()  returns FALSE (0000ms, 11042ms total)
T18FC 6614:767 JLINK_IsHalted()  returns FALSE (0000ms, 11042ms total)
T18FC 6614:769 JLINK_IsHalted()  returns FALSE (0000ms, 11042ms total)
T18FC 6614:771 JLINK_IsHalted()  returns FALSE (0000ms, 11042ms total)
T18FC 6614:781 JLINK_IsHalted()  returns FALSE (0000ms, 11042ms total)
T18FC 6614:783 JLINK_IsHalted()  returns FALSE (0000ms, 11042ms total)
T18FC 6614:785 JLINK_IsHalted()  returns FALSE (0000ms, 11042ms total)
T18FC 6614:794 JLINK_IsHalted()  returns FALSE (0000ms, 11042ms total)
T18FC 6614:796 JLINK_IsHalted()  returns FALSE (0000ms, 11042ms total)
T18FC 6614:798 JLINK_IsHalted()  returns FALSE (0000ms, 11042ms total)
T18FC 6614:800 JLINK_IsHalted()  returns TRUE (0002ms, 11044ms total)
T18FC 6614:802 JLINK_ReadReg(R15 (PC))  returns 0x10000000 (0000ms, 11042ms total)
T18FC 6614:802 JLINK_ClrBPEx(BPHandle = 0x00000005)  returns 0x00 (0000ms, 11042ms total)
T18FC 6614:802 JLINK_ReadReg(R0)  returns 0x00000000 (0000ms, 11042ms total)
T18FC 6614:802 JLINK_WriteReg(R0, 0x00002000)  returns 0x00 (0000ms, 11042ms total)
T18FC 6614:802 JLINK_WriteReg(R1, 0x00001000)  returns 0x00 (0000ms, 11042ms total)
T18FC 6614:802 JLINK_WriteReg(R2, 0x000000FF)  returns 0x00 (0000ms, 11042ms total)
T18FC 6614:802 JLINK_WriteReg(R3, 0x00000000)  returns 0x00 (0000ms, 11042ms total)
T18FC 6614:802 JLINK_WriteReg(R4, 0x00000000)  returns 0x00 (0000ms, 11042ms total)
T18FC 6614:802 JLINK_WriteReg(R5, 0x00000000)  returns 0x00 (0000ms, 11042ms total)
T18FC 6614:802 JLINK_WriteReg(R6, 0x00000000)  returns 0x00 (0000ms, 11042ms total)
T18FC 6614:802 JLINK_WriteReg(R7, 0x00000000)  returns 0x00 (0000ms, 11042ms total)
T18FC 6614:802 JLINK_WriteReg(R8, 0x00000000)  returns 0x00 (0000ms, 11042ms total)
T18FC 6614:802 JLINK_WriteReg(R9, 0x10000168)  returns 0x00 (0000ms, 11042ms total)
T18FC 6614:803 JLINK_WriteReg(R10, 0x00000000)  returns 0x00 (0000ms, 11042ms total)
T18FC 6614:803 JLINK_WriteReg(R11, 0x00000000)  returns 0x00 (0000ms, 11042ms total)
T18FC 6614:803 JLINK_WriteReg(R12, 0x00000000)  returns 0x00 (0000ms, 11042ms total)
T18FC 6614:803 JLINK_WriteReg(R13 (SP), 0x10000800)  returns 0x00 (0000ms, 11042ms total)
T18FC 6614:803 JLINK_WriteReg(R14, 0x10000001)  returns 0x00 (0000ms, 11042ms total)
T18FC 6614:803 JLINK_WriteReg(R15 (PC), 0x10000020)  returns 0x00 (0000ms, 11042ms total)
T18FC 6614:803 JLINK_WriteReg(XPSR, 0x01000000)  returns 0x00 (0000ms, 11042ms total)
T18FC 6614:803 JLINK_WriteReg(MSP, 0x10000800)  returns 0x00 (0000ms, 11042ms total)
T18FC 6614:803 JLINK_WriteReg(PSP, 0x10000800)  returns 0x00 (0000ms, 11042ms total)
T18FC 6614:803 JLINK_WriteReg(CFBP, 0x00000000)  returns 0x00 (0000ms, 11042ms total)
T18FC 6614:803 JLINK_SetBPEx(Addr = 0x10000000, Type = 0xFFFFFFF2)  returns 0x00000006 (0000ms, 11042ms total)
T18FC 6614:803 JLINK_Go() -- CPU_WriteMem(4 bytes @ 0xE0002000) -- CPU_ReadMem(4 bytes @ 0xE0001000) -- CPU_WriteMem(4 bytes @ 0xE0001000) (0003ms, 11045ms total)
T18FC 6614:806 JLINK_IsHalted()  returns TRUE (0002ms, 11047ms total)
T18FC 6614:808 JLINK_ReadReg(R15 (PC))  returns 0x10000000 (0000ms, 11045ms total)
T18FC 6614:808 JLINK_ClrBPEx(BPHandle = 0x00000006)  returns 0x00 (0000ms, 11045ms total)
T18FC 6614:808 JLINK_ReadReg(R0)  returns 0x00000001 (0000ms, 11045ms total)
T18FC 6614:808 JLINK_WriteReg(R0, 0x00002000)  returns 0x00 (0000ms, 11045ms total)
T18FC 6614:808 JLINK_WriteReg(R1, 0x00001000)  returns 0x00 (0000ms, 11045ms total)
T18FC 6614:808 JLINK_WriteReg(R2, 0x000000FF)  returns 0x00 (0000ms, 11045ms total)
T18FC 6614:808 JLINK_WriteReg(R3, 0x00000000)  returns 0x00 (0000ms, 11045ms total)
T18FC 6614:808 JLINK_WriteReg(R4, 0x00000000)  returns 0x00 (0000ms, 11045ms total)
T18FC 6614:808 JLINK_WriteReg(R5, 0x00000000)  returns 0x00 (0000ms, 11045ms total)
T18FC 6614:808 JLINK_WriteReg(R6, 0x00000000)  returns 0x00 (0000ms, 11045ms total)
T18FC 6614:808 JLINK_WriteReg(R7, 0x00000000)  returns 0x00 (0000ms, 11045ms total)
T18FC 6614:808 JLINK_WriteReg(R8, 0x00000000)  returns 0x00 (0000ms, 11045ms total)
T18FC 6614:808 JLINK_WriteReg(R9, 0x10000168)  returns 0x00 (0000ms, 11045ms total)
T18FC 6614:808 JLINK_WriteReg(R10, 0x00000000)  returns 0x00 (0000ms, 11045ms total)
T18FC 6614:808 JLINK_WriteReg(R11, 0x00000000)  returns 0x00 (0000ms, 11045ms total)
T18FC 6614:808 JLINK_WriteReg(R12, 0x00000000)  returns 0x00 (0000ms, 11045ms total)
T18FC 6614:808 JLINK_WriteReg(R13 (SP), 0x10000800)  returns 0x00 (0000ms, 11045ms total)
T18FC 6614:808 JLINK_WriteReg(R14, 0x10000001)  returns 0x00 (0000ms, 11045ms total)
T18FC 6614:808 JLINK_WriteReg(R15 (PC), 0x100000A4)  returns 0x00 (0000ms, 11045ms total)
T18FC 6614:808 JLINK_WriteReg(XPSR, 0x01000000)  returns 0x00 (0000ms, 11045ms total)
T18FC 6614:808 JLINK_WriteReg(MSP, 0x10000800)  returns 0x00 (0000ms, 11045ms total)
T18FC 6614:808 JLINK_WriteReg(PSP, 0x10000800)  returns 0x00 (0001ms, 11046ms total)
T18FC 6614:809 JLINK_WriteReg(CFBP, 0x00000000)  returns 0x00 (0000ms, 11046ms total)
T18FC 6614:809 JLINK_SetBPEx(Addr = 0x10000000, Type = 0xFFFFFFF2)  returns 0x00000007 (0000ms, 11046ms total)
T18FC 6614:809 JLINK_Go() -- CPU_WriteMem(4 bytes @ 0xE0002000) -- CPU_ReadMem(4 bytes @ 0xE0001000) -- CPU_WriteMem(4 bytes @ 0xE0001000) (0002ms, 11048ms total)
T18FC 6614:811 JLINK_IsHalted()  returns FALSE (0000ms, 11048ms total)
T18FC 6614:825 JLINK_IsHalted()  returns FALSE (0000ms, 11048ms total)
T18FC 6614:827 JLINK_IsHalted()  returns FALSE (0000ms, 11048ms total)
T18FC 6614:829 JLINK_IsHalted()  returns FALSE (0000ms, 11048ms total)
T18FC 6614:831 JLINK_IsHalted()  returns FALSE (0000ms, 11048ms total)
T18FC 6614:840 JLINK_IsHalted()  returns FALSE (0000ms, 11048ms total)
T18FC 6614:842 JLINK_IsHalted()  returns FALSE (0000ms, 11048ms total)
T18FC 6614:844 JLINK_IsHalted()  returns FALSE (0000ms, 11048ms total)
T18FC 6614:846 JLINK_IsHalted()  returns FALSE (0000ms, 11048ms total)
T18FC 6614:848 JLINK_IsHalted()  returns FALSE (0000ms, 11048ms total)
T18FC 6614:857 JLINK_IsHalted()  returns FALSE (0000ms, 11048ms total)
T18FC 6614:859 JLINK_IsHalted()  returns FALSE (0000ms, 11048ms total)
T18FC 6614:861 JLINK_IsHalted()  returns FALSE (0000ms, 11048ms total)
T18FC 6614:863 JLINK_IsHalted()  returns FALSE (0000ms, 11048ms total)
T18FC 6614:865 JLINK_IsHalted()  returns FALSE (0000ms, 11048ms total)
T18FC 6614:867 JLINK_IsHalted()  returns FALSE (0000ms, 11048ms total)
T18FC 6614:869 JLINK_IsHalted()  returns FALSE (0000ms, 11048ms total)
T18FC 6614:878 JLINK_IsHalted()  returns FALSE (0000ms, 11048ms total)
T18FC 6614:889 JLINK_IsHalted()  returns FALSE (0000ms, 11048ms total)
T18FC 6614:893 JLINK_IsHalted()  returns FALSE (0000ms, 11048ms total)
T18FC 6614:895 JLINK_IsHalted()  returns FALSE (0000ms, 11048ms total)
T18FC 6614:909 JLINK_IsHalted()  returns FALSE (0000ms, 11048ms total)
T18FC 6614:924 JLINK_IsHalted()  returns TRUE (0002ms, 11050ms total)
T18FC 6614:926 JLINK_ReadReg(R15 (PC))  returns 0x10000000 (0000ms, 11048ms total)
T18FC 6614:926 JLINK_ClrBPEx(BPHandle = 0x00000007)  returns 0x00 (0000ms, 11048ms total)
T18FC 6614:926 JLINK_ReadReg(R0)  returns 0x00000000 (0000ms, 11048ms total)
T18FC 6614:926 JLINK_WriteReg(R0, 0x00003000)  returns 0x00 (0000ms, 11048ms total)
T18FC 6614:926 JLINK_WriteReg(R1, 0x00001000)  returns 0x00 (0000ms, 11048ms total)
T18FC 6614:926 JLINK_WriteReg(R2, 0x000000FF)  returns 0x00 (0000ms, 11048ms total)
T18FC 6614:926 JLINK_WriteReg(R3, 0x00000000)  returns 0x00 (0000ms, 11048ms total)
T18FC 6614:926 JLINK_WriteReg(R4, 0x00000000)  returns 0x00 (0000ms, 11048ms total)
T18FC 6614:926 JLINK_WriteReg(R5, 0x00000000)  returns 0x00 (0000ms, 11048ms total)
T18FC 6614:926 JLINK_WriteReg(R6, 0x00000000)  returns 0x00 (0000ms, 11048ms total)
T18FC 6614:926 JLINK_WriteReg(R7, 0x00000000)  returns 0x00 (0000ms, 11048ms total)
T18FC 6614:927 JLINK_WriteReg(R8, 0x00000000)  returns 0x00 (0000ms, 11049ms total)
T18FC 6614:927 JLINK_WriteReg(R9, 0x10000168)  returns 0x00 (0000ms, 11049ms total)
T18FC 6614:927 JLINK_WriteReg(R10, 0x00000000)  returns 0x00 (0000ms, 11049ms total)
T18FC 6614:927 JLINK_WriteReg(R11, 0x00000000)  returns 0x00 (0000ms, 11049ms total)
T18FC 6614:927 JLINK_WriteReg(R12, 0x00000000)  returns 0x00 (0000ms, 11049ms total)
T18FC 6614:927 JLINK_WriteReg(R13 (SP), 0x10000800)  returns 0x00 (0000ms, 11049ms total)
T18FC 6614:927 JLINK_WriteReg(R14, 0x10000001)  returns 0x00 (0000ms, 11049ms total)
T18FC 6614:927 JLINK_WriteReg(R15 (PC), 0x10000020)  returns 0x00 (0000ms, 11049ms total)
T18FC 6614:927 JLINK_WriteReg(XPSR, 0x01000000)  returns 0x00 (0000ms, 11049ms total)
T18FC 6614:927 JLINK_WriteReg(MSP, 0x10000800)  returns 0x00 (0000ms, 11049ms total)
T18FC 6614:927 JLINK_WriteReg(PSP, 0x10000800)  returns 0x00 (0000ms, 11049ms total)
T18FC 6614:927 JLINK_WriteReg(CFBP, 0x00000000)  returns 0x00 (0000ms, 11049ms total)
T18FC 6614:927 JLINK_SetBPEx(Addr = 0x10000000, Type = 0xFFFFFFF2)  returns 0x00000008 (0000ms, 11049ms total)
T18FC 6614:927 JLINK_Go() -- CPU_WriteMem(4 bytes @ 0xE0002000) -- CPU_ReadMem(4 bytes @ 0xE0001000) -- CPU_WriteMem(4 bytes @ 0xE0001000) (0003ms, 11052ms total)
T18FC 6614:930 JLINK_IsHalted()  returns TRUE (0002ms, 11054ms total)
T18FC 6614:932 JLINK_ReadReg(R15 (PC))  returns 0x10000000 (0000ms, 11052ms total)
T18FC 6614:932 JLINK_ClrBPEx(BPHandle = 0x00000008)  returns 0x00 (0000ms, 11052ms total)
T18FC 6614:932 JLINK_ReadReg(R0)  returns 0x00000001 (0000ms, 11052ms total)
T18FC 6614:932 JLINK_WriteReg(R0, 0x00003000)  returns 0x00 (0000ms, 11052ms total)
T18FC 6614:932 JLINK_WriteReg(R1, 0x00001000)  returns 0x00 (0000ms, 11052ms total)
T18FC 6614:932 JLINK_WriteReg(R2, 0x000000FF)  returns 0x00 (0000ms, 11052ms total)
T18FC 6614:932 JLINK_WriteReg(R3, 0x00000000)  returns 0x00 (0000ms, 11052ms total)
T18FC 6614:932 JLINK_WriteReg(R4, 0x00000000)  returns 0x00 (0000ms, 11052ms total)
T18FC 6614:932 JLINK_WriteReg(R5, 0x00000000)  returns 0x00 (0000ms, 11052ms total)
T18FC 6614:932 JLINK_WriteReg(R6, 0x00000000)  returns 0x00 (0000ms, 11052ms total)
T18FC 6614:932 JLINK_WriteReg(R7, 0x00000000)  returns 0x00 (0000ms, 11052ms total)
T18FC 6614:932 JLINK_WriteReg(R8, 0x00000000)  returns 0x00 (0001ms, 11053ms total)
T18FC 6614:933 JLINK_WriteReg(R9, 0x10000168)  returns 0x00 (0000ms, 11053ms total)
T18FC 6614:933 JLINK_WriteReg(R10, 0x00000000)  returns 0x00 (0000ms, 11053ms total)
T18FC 6614:933 JLINK_WriteReg(R11, 0x00000000)  returns 0x00 (0000ms, 11053ms total)
T18FC 6614:933 JLINK_WriteReg(R12, 0x00000000)  returns 0x00 (0000ms, 11053ms total)
T18FC 6614:933 JLINK_WriteReg(R13 (SP), 0x10000800)  returns 0x00 (0000ms, 11053ms total)
T18FC 6614:933 JLINK_WriteReg(R14, 0x10000001)  returns 0x00 (0000ms, 11053ms total)
T18FC 6614:933 JLINK_WriteReg(R15 (PC), 0x100000A4)  returns 0x00 (0000ms, 11053ms total)
T18FC 6614:933 JLINK_WriteReg(XPSR, 0x01000000)  returns 0x00 (0000ms, 11053ms total)
T18FC 6614:933 JLINK_WriteReg(MSP, 0x10000800)  returns 0x00 (0000ms, 11053ms total)
T18FC 6614:933 JLINK_WriteReg(PSP, 0x10000800)  returns 0x00 (0000ms, 11053ms total)
T18FC 6614:933 JLINK_WriteReg(CFBP, 0x00000000)  returns 0x00 (0000ms, 11053ms total)
T18FC 6614:933 JLINK_SetBPEx(Addr = 0x10000000, Type = 0xFFFFFFF2)  returns 0x00000009 (0000ms, 11053ms total)
T18FC 6614:933 JLINK_Go() -- CPU_WriteMem(4 bytes @ 0xE0002000) -- CPU_ReadMem(4 bytes @ 0xE0001000) -- CPU_WriteMem(4 bytes @ 0xE0001000) (0003ms, 11056ms total)
T18FC 6614:936 JLINK_IsHalted()  returns FALSE (0000ms, 11056ms total)
T18FC 6614:955 JLINK_IsHalted()  returns FALSE (0000ms, 11056ms total)
T18FC 6614:966 JLINK_IsHalted()  returns FALSE (0000ms, 11056ms total)
T18FC 6614:968 JLINK_IsHalted()  returns FALSE (0000ms, 11056ms total)
T18FC 6614:982 JLINK_IsHalted()  returns FALSE (0000ms, 11056ms total)
T18FC 6614:984 JLINK_IsHalted()  returns FALSE (0000ms, 11056ms total)
T18FC 6614:988 JLINK_IsHalted()  returns FALSE (0000ms, 11056ms total)
T18FC 6614:990 JLINK_IsHalted()  returns FALSE (0000ms, 11056ms total)
T18FC 6615:004 JLINK_IsHalted()  returns FALSE (0000ms, 11056ms total)
T18FC 6615:015 JLINK_IsHalted()  returns FALSE (0000ms, 11056ms total)
T18FC 6615:030 JLINK_IsHalted()  returns FALSE (0000ms, 11056ms total)
T18FC 6615:032 JLINK_IsHalted()  returns FALSE (0000ms, 11056ms total)
T18FC 6615:036 JLINK_IsHalted()  returns FALSE (0000ms, 11056ms total)
T18FC 6615:056 JLINK_IsHalted()  returns TRUE (0002ms, 11058ms total)
T18FC 6615:058 JLINK_ReadReg(R15 (PC))  returns 0x10000000 (0000ms, 11056ms total)
T18FC 6615:058 JLINK_ClrBPEx(BPHandle = 0x00000009)  returns 0x00 (0000ms, 11056ms total)
T18FC 6615:058 JLINK_ReadReg(R0)  returns 0x00000000 (0000ms, 11056ms total)
T18FC 6615:058 JLINK_WriteReg(R0, 0x00004000)  returns 0x00 (0000ms, 11056ms total)
T18FC 6615:058 JLINK_WriteReg(R1, 0x00001000)  returns 0x00 (0000ms, 11056ms total)
T18FC 6615:058 JLINK_WriteReg(R2, 0x000000FF)  returns 0x00 (0000ms, 11056ms total)
T18FC 6615:058 JLINK_WriteReg(R3, 0x00000000)  returns 0x00 (0000ms, 11056ms total)
T18FC 6615:059 JLINK_WriteReg(R4, 0x00000000)  returns 0x00 (0000ms, 11057ms total)
T18FC 6615:059 JLINK_WriteReg(R5, 0x00000000)  returns 0x00 (0000ms, 11057ms total)
T18FC 6615:059 JLINK_WriteReg(R6, 0x00000000)  returns 0x00 (0000ms, 11057ms total)
T18FC 6615:059 JLINK_WriteReg(R7, 0x00000000)  returns 0x00 (0000ms, 11057ms total)
T18FC 6615:059 JLINK_WriteReg(R8, 0x00000000)  returns 0x00 (0000ms, 11057ms total)
T18FC 6615:059 JLINK_WriteReg(R9, 0x10000168)  returns 0x00 (0000ms, 11057ms total)
T18FC 6615:059 JLINK_WriteReg(R10, 0x00000000)  returns 0x00 (0000ms, 11057ms total)
T18FC 6615:059 JLINK_WriteReg(R11, 0x00000000)  returns 0x00 (0000ms, 11057ms total)
T18FC 6615:059 JLINK_WriteReg(R12, 0x00000000)  returns 0x00 (0000ms, 11057ms total)
T18FC 6615:059 JLINK_WriteReg(R13 (SP), 0x10000800)  returns 0x00 (0000ms, 11057ms total)
T18FC 6615:059 JLINK_WriteReg(R14, 0x10000001)  returns 0x00 (0000ms, 11057ms total)
T18FC 6615:059 JLINK_WriteReg(R15 (PC), 0x10000020)  returns 0x00 (0000ms, 11057ms total)
T18FC 6615:059 JLINK_WriteReg(XPSR, 0x01000000)  returns 0x00 (0000ms, 11057ms total)
T18FC 6615:059 JLINK_WriteReg(MSP, 0x10000800)  returns 0x00 (0000ms, 11057ms total)
T18FC 6615:059 JLINK_WriteReg(PSP, 0x10000800)  returns 0x00 (0000ms, 11057ms total)
T18FC 6615:059 JLINK_WriteReg(CFBP, 0x00000000)  returns 0x00 (0000ms, 11057ms total)
T18FC 6615:059 JLINK_SetBPEx(Addr = 0x10000000, Type = 0xFFFFFFF2)  returns 0x0000000A (0000ms, 11057ms total)
T18FC 6615:059 JLINK_Go() -- CPU_WriteMem(4 bytes @ 0xE0002000) -- CPU_ReadMem(4 bytes @ 0xE0001000) -- CPU_WriteMem(4 bytes @ 0xE0001000) (0003ms, 11060ms total)
T18FC 6615:062 JLINK_IsHalted()  returns TRUE (0002ms, 11062ms total)
T18FC 6615:064 JLINK_ReadReg(R15 (PC))  returns 0x10000000 (0000ms, 11060ms total)
T18FC 6615:064 JLINK_ClrBPEx(BPHandle = 0x0000000A)  returns 0x00 (0000ms, 11060ms total)
T18FC 6615:064 JLINK_ReadReg(R0)  returns 0x00000001 (0000ms, 11060ms total)
T18FC 6615:064 JLINK_WriteReg(R0, 0x00004000)  returns 0x00 (0000ms, 11060ms total)
T18FC 6615:064 JLINK_WriteReg(R1, 0x00001000)  returns 0x00 (0000ms, 11060ms total)
T18FC 6615:064 JLINK_WriteReg(R2, 0x000000FF)  returns 0x00 (0000ms, 11060ms total)
T18FC 6615:064 JLINK_WriteReg(R3, 0x00000000)  returns 0x00 (0000ms, 11060ms total)
T18FC 6615:064 JLINK_WriteReg(R4, 0x00000000)  returns 0x00 (0000ms, 11060ms total)
T18FC 6615:064 JLINK_WriteReg(R5, 0x00000000)  returns 0x00 (0000ms, 11060ms total)
T18FC 6615:064 JLINK_WriteReg(R6, 0x00000000)  returns 0x00 (0000ms, 11060ms total)
T18FC 6615:064 JLINK_WriteReg(R7, 0x00000000)  returns 0x00 (0000ms, 11060ms total)
T18FC 6615:064 JLINK_WriteReg(R8, 0x00000000)  returns 0x00 (0000ms, 11060ms total)
T18FC 6615:064 JLINK_WriteReg(R9, 0x10000168)  returns 0x00 (0000ms, 11060ms total)
T18FC 6615:064 JLINK_WriteReg(R10, 0x00000000)  returns 0x00 (0000ms, 11060ms total)
T18FC 6615:064 JLINK_WriteReg(R11, 0x00000000)  returns 0x00 (0000ms, 11060ms total)
T18FC 6615:064 JLINK_WriteReg(R12, 0x00000000)  returns 0x00 (0000ms, 11060ms total)
T18FC 6615:064 JLINK_WriteReg(R13 (SP), 0x10000800)  returns 0x00 (0000ms, 11060ms total)
T18FC 6615:064 JLINK_WriteReg(R14, 0x10000001)  returns 0x00 (0000ms, 11060ms total)
T18FC 6615:064 JLINK_WriteReg(R15 (PC), 0x100000A4)  returns 0x00 (0000ms, 11060ms total)
T18FC 6615:064 JLINK_WriteReg(XPSR, 0x01000000)  returns 0x00 (0000ms, 11060ms total)
T18FC 6615:064 JLINK_WriteReg(MSP, 0x10000800)  returns 0x00 (0000ms, 11060ms total)
T18FC 6615:064 JLINK_WriteReg(PSP, 0x10000800)  returns 0x00 (0000ms, 11060ms total)
T18FC 6615:064 JLINK_WriteReg(CFBP, 0x00000000)  returns 0x00 (0000ms, 11060ms total)
T18FC 6615:064 JLINK_SetBPEx(Addr = 0x10000000, Type = 0xFFFFFFF2)  returns 0x0000000B (0001ms, 11061ms total)
T18FC 6615:065 JLINK_Go() -- CPU_WriteMem(4 bytes @ 0xE0002000) -- CPU_ReadMem(4 bytes @ 0xE0001000) -- CPU_WriteMem(4 bytes @ 0xE0001000) (0002ms, 11063ms total)
T18FC 6615:067 JLINK_IsHalted()  returns FALSE (0000ms, 11063ms total)
T18FC 6615:093 JLINK_IsHalted()  returns FALSE (0000ms, 11063ms total)
T18FC 6615:095 JLINK_IsHalted()  returns FALSE (0000ms, 11063ms total)
T18FC 6615:111 JLINK_IsHalted()  returns FALSE (0000ms, 11063ms total)
T18FC 6615:115 JLINK_IsHalted()  returns FALSE (0000ms, 11063ms total)
T18FC 6615:126 JLINK_IsHalted()  returns FALSE (0000ms, 11063ms total)
T18FC 6615:128 JLINK_IsHalted()  returns FALSE (0000ms, 11063ms total)
T18FC 6615:156 JLINK_IsHalted()  returns FALSE (0000ms, 11063ms total)
T18FC 6615:158 JLINK_IsHalted()  returns FALSE (0000ms, 11063ms total)
T18FC 6615:160 JLINK_IsHalted()  returns FALSE (0000ms, 11063ms total)
T18FC 6615:174 JLINK_IsHalted()  returns TRUE (0002ms, 11065ms total)
T18FC 6615:176 JLINK_ReadReg(R15 (PC))  returns 0x10000000 (0000ms, 11063ms total)
T18FC 6615:176 JLINK_ClrBPEx(BPHandle = 0x0000000B)  returns 0x00 (0000ms, 11063ms total)
T18FC 6615:176 JLINK_ReadReg(R0)  returns 0x00000000 (0000ms, 11063ms total)
T18FC 6615:176 JLINK_WriteReg(R0, 0x00000001)  returns 0x00 (0000ms, 11063ms total)
T18FC 6615:176 JLINK_WriteReg(R1, 0x00001000)  returns 0x00 (0000ms, 11063ms total)
T18FC 6615:176 JLINK_WriteReg(R2, 0x000000FF)  returns 0x00 (0001ms, 11064ms total)
T18FC 6615:177 JLINK_WriteReg(R3, 0x00000000)  returns 0x00 (0000ms, 11064ms total)
T18FC 6615:177 JLINK_WriteReg(R4, 0x00000000)  returns 0x00 (0000ms, 11064ms total)
T18FC 6615:177 JLINK_WriteReg(R5, 0x00000000)  returns 0x00 (0000ms, 11064ms total)
T18FC 6615:177 JLINK_WriteReg(R6, 0x00000000)  returns 0x00 (0000ms, 11064ms total)
T18FC 6615:177 JLINK_WriteReg(R7, 0x00000000)  returns 0x00 (0000ms, 11064ms total)
T18FC 6615:177 JLINK_WriteReg(R8, 0x00000000)  returns 0x00 (0000ms, 11064ms total)
T18FC 6615:177 JLINK_WriteReg(R9, 0x10000168)  returns 0x00 (0000ms, 11064ms total)
T18FC 6615:177 JLINK_WriteReg(R10, 0x00000000)  returns 0x00 (0000ms, 11064ms total)
T18FC 6615:177 JLINK_WriteReg(R11, 0x00000000)  returns 0x00 (0000ms, 11064ms total)
T18FC 6615:177 JLINK_WriteReg(R12, 0x00000000)  returns 0x00 (0000ms, 11064ms total)
T18FC 6615:177 JLINK_WriteReg(R13 (SP), 0x10000800)  returns 0x00 (0000ms, 11064ms total)
T18FC 6615:177 JLINK_WriteReg(R14, 0x10000001)  returns 0x00 (0000ms, 11064ms total)
T18FC 6615:177 JLINK_WriteReg(R15 (PC), 0x10000060)  returns 0x00 (0000ms, 11064ms total)
T18FC 6615:177 JLINK_WriteReg(XPSR, 0x01000000)  returns 0x00 (0000ms, 11064ms total)
T18FC 6615:177 JLINK_WriteReg(MSP, 0x10000800)  returns 0x00 (0000ms, 11064ms total)
T18FC 6615:177 JLINK_WriteReg(PSP, 0x10000800)  returns 0x00 (0000ms, 11064ms total)
T18FC 6615:177 JLINK_WriteReg(CFBP, 0x00000000)  returns 0x00 (0000ms, 11064ms total)
T18FC 6615:177 JLINK_SetBPEx(Addr = 0x10000000, Type = 0xFFFFFFF2)  returns 0x0000000C (0000ms, 11064ms total)
T18FC 6615:177 JLINK_Go() -- CPU_WriteMem(4 bytes @ 0xE0002000) -- CPU_ReadMem(4 bytes @ 0xE0001000) -- CPU_WriteMem(4 bytes @ 0xE0001000) (0003ms, 11067ms total)
T18FC 6615:180 JLINK_IsHalted()  returns TRUE (0002ms, 11069ms total)
T18FC 6615:182 JLINK_ReadReg(R15 (PC))  returns 0x10000000 (0000ms, 11067ms total)
T18FC 6615:182 JLINK_ClrBPEx(BPHandle = 0x0000000C)  returns 0x00 (0000ms, 11067ms total)
T18FC 6615:182 JLINK_ReadReg(R0)  returns 0x00000000 (0000ms, 11067ms total)
T18FC 6615:239 JLINK_WriteMem(0x10000000, 0x0170 Bytes, ...) - Data: 00 BE 0A E0 0D 78 2D 06 68 40 08 24 40 00 00 D3 ... -- CPU_WriteMem(368 bytes @ 0x10000000)  returns 0x170 (0002ms, 11069ms total)
T18FC 6615:241 JLINK_WriteReg(R0, 0x00000000)  returns 0x00 (0000ms, 11069ms total)
T18FC 6615:241 JLINK_WriteReg(R1, 0x00B71B00)  returns 0x00 (0000ms, 11069ms total)
T18FC 6615:241 JLINK_WriteReg(R2, 0x00000002)  returns 0x00 (0000ms, 11069ms total)
T18FC 6615:241 JLINK_WriteReg(R3, 0x00000000)  returns 0x00 (0000ms, 11069ms total)
T18FC 6615:241 JLINK_WriteReg(R4, 0x00000000)  returns 0x00 (0000ms, 11069ms total)
T18FC 6615:241 JLINK_WriteReg(R5, 0x00000000)  returns 0x00 (0000ms, 11069ms total)
T18FC 6615:241 JLINK_WriteReg(R6, 0x00000000)  returns 0x00 (0000ms, 11069ms total)
T18FC 6615:241 JLINK_WriteReg(R7, 0x00000000)  returns 0x00 (0000ms, 11069ms total)
T18FC 6615:241 JLINK_WriteReg(R8, 0x00000000)  returns 0x00 (0000ms, 11069ms total)
T18FC 6615:241 JLINK_WriteReg(R9, 0x10000168)  returns 0x00 (0000ms, 11069ms total)
T18FC 6615:241 JLINK_WriteReg(R10, 0x00000000)  returns 0x00 (0000ms, 11069ms total)
T18FC 6615:241 JLINK_WriteReg(R11, 0x00000000)  returns 0x00 (0000ms, 11069ms total)
T18FC 6615:241 JLINK_WriteReg(R12, 0x00000000)  returns 0x00 (0000ms, 11069ms total)
T18FC 6615:241 JLINK_WriteReg(R13 (SP), 0x10000800)  returns 0x00 (0000ms, 11069ms total)
T18FC 6615:241 JLINK_WriteReg(R14, 0x10000001)  returns 0x00 (0000ms, 11069ms total)
T18FC 6615:241 JLINK_WriteReg(R15 (PC), 0x1000003C)  returns 0x00 (0000ms, 11069ms total)
T18FC 6615:241 JLINK_WriteReg(XPSR, 0x01000000)  returns 0x00 (0000ms, 11069ms total)
T18FC 6615:241 JLINK_WriteReg(MSP, 0x10000800)  returns 0x00 (0000ms, 11069ms total)
T18FC 6615:241 JLINK_WriteReg(PSP, 0x10000800)  returns 0x00 (0000ms, 11069ms total)
T18FC 6615:242 JLINK_WriteReg(CFBP, 0x00000000)  returns 0x00 (0000ms, 11069ms total)
T18FC 6615:242 JLINK_SetBPEx(Addr = 0x10000000, Type = 0xFFFFFFF2)  returns 0x0000000D (0000ms, 11069ms total)
T18FC 6615:242 JLINK_Go() -- CPU_WriteMem(4 bytes @ 0xE0002000) -- CPU_ReadMem(4 bytes @ 0xE0001000) -- CPU_WriteMem(4 bytes @ 0xE0001000) (0003ms, 11072ms total)
T18FC 6615:245 JLINK_IsHalted()  returns TRUE (0002ms, 11074ms total)
T18FC 6615:247 JLINK_ReadReg(R15 (PC))  returns 0x10000000 (0000ms, 11072ms total)
T18FC 6615:247 JLINK_ClrBPEx(BPHandle = 0x0000000D)  returns 0x00 (0000ms, 11072ms total)
T18FC 6615:247 JLINK_ReadReg(R0)  returns 0x00000000 (0000ms, 11072ms total)
T18FC 6615:247 JLINK_WriteMem(0x10000190, 0x0270 Bytes, ...) - Data: D0 1F 00 10 85 02 00 00 89 02 00 00 8B 02 00 00 ... -- CPU_WriteMem(624 bytes @ 0x10000190)  returns 0x270 (0003ms, 11075ms total)
T18FC 6615:250 JLINK_WriteMem(0x10000400, 0x0190 Bytes, ...) - Data: 78 17 00 10 8C 17 00 10 C8 06 00 10 E8 06 00 10 ... -- CPU_WriteMem(400 bytes @ 0x10000400)  returns 0x190 (0002ms, 11077ms total)
T18FC 6615:252 JLINK_WriteReg(R0, 0x00000000)  returns 0x00 (0000ms, 11077ms total)
T18FC 6615:252 JLINK_WriteReg(R1, 0x00000400)  returns 0x00 (0000ms, 11077ms total)
T18FC 6615:252 JLINK_WriteReg(R2, 0x10000190)  returns 0x00 (0000ms, 11077ms total)
T18FC 6615:252 JLINK_WriteReg(R3, 0x00000000)  returns 0x00 (0000ms, 11077ms total)
T18FC 6615:252 JLINK_WriteReg(R4, 0x00000000)  returns 0x00 (0000ms, 11077ms total)
T18FC 6615:252 JLINK_WriteReg(R5, 0x00000000)  returns 0x00 (0000ms, 11077ms total)
T18FC 6615:252 JLINK_WriteReg(R6, 0x00000000)  returns 0x00 (0000ms, 11077ms total)
T18FC 6615:252 JLINK_WriteReg(R7, 0x00000000)  returns 0x00 (0000ms, 11077ms total)
T18FC 6615:252 JLINK_WriteReg(R8, 0x00000000)  returns 0x00 (0000ms, 11077ms total)
T18FC 6615:252 JLINK_WriteReg(R9, 0x10000168)  returns 0x00 (0001ms, 11078ms total)
T18FC 6615:253 JLINK_WriteReg(R10, 0x00000000)  returns 0x00 (0000ms, 11078ms total)
T18FC 6615:253 JLINK_WriteReg(R11, 0x00000000)  returns 0x00 (0000ms, 11078ms total)
T18FC 6615:253 JLINK_WriteReg(R12, 0x00000000)  returns 0x00 (0000ms, 11078ms total)
T18FC 6615:253 JLINK_WriteReg(R13 (SP), 0x10000800)  returns 0x00 (0000ms, 11078ms total)
T18FC 6615:253 JLINK_WriteReg(R14, 0x10000001)  returns 0x00 (0000ms, 11078ms total)
T18FC 6615:253 JLINK_WriteReg(R15 (PC), 0x100000E6)  returns 0x00 (0000ms, 11078ms total)
T18FC 6615:253 JLINK_WriteReg(XPSR, 0x01000000)  returns 0x00 (0000ms, 11078ms total)
T18FC 6615:253 JLINK_WriteReg(MSP, 0x10000800)  returns 0x00 (0000ms, 11078ms total)
T18FC 6615:253 JLINK_WriteReg(PSP, 0x10000800)  returns 0x00 (0000ms, 11078ms total)
T18FC 6615:253 JLINK_WriteReg(CFBP, 0x00000000)  returns 0x00 (0000ms, 11078ms total)
T18FC 6615:253 JLINK_SetBPEx(Addr = 0x10000000, Type = 0xFFFFFFF2)  returns 0x0000000E (0000ms, 11078ms total)
T18FC 6615:253 JLINK_Go() -- CPU_WriteMem(4 bytes @ 0xE0002000) -- CPU_ReadMem(4 bytes @ 0xE0001000) -- CPU_WriteMem(4 bytes @ 0xE0001000) (0003ms, 11081ms total)
T18FC 6615:256 JLINK_IsHalted()  returns FALSE (0000ms, 11081ms total)
T18FC 6615:270 JLINK_IsHalted()  returns TRUE (0002ms, 11083ms total)
T18FC 6615:272 JLINK_ReadReg(R15 (PC))  returns 0x10000000 (0000ms, 11081ms total)
T18FC 6615:272 JLINK_ClrBPEx(BPHandle = 0x0000000E)  returns 0x00 (0000ms, 11081ms total)
T18FC 6615:272 JLINK_ReadReg(R0)  returns 0x00000000 (0000ms, 11081ms total)
T18FC 6615:273 JLINK_WriteMem(0x10000190, 0x0270 Bytes, ...) - Data: C0 4C C1 48 00 7E 08 90 18 21 02 A8 03 F0 F1 FB ... -- CPU_WriteMem(624 bytes @ 0x10000190)  returns 0x270 (0002ms, 11083ms total)
T18FC 6615:275 JLINK_WriteMem(0x10000400, 0x0190 Bytes, ...) - Data: 26 48 58 30 85 42 01 D1 01 26 01 27 01 2E 6C D1 ... -- CPU_WriteMem(400 bytes @ 0x10000400)  returns 0x190 (0002ms, 11085ms total)
T18FC 6615:277 JLINK_WriteReg(R0, 0x00000400)  returns 0x00 (0001ms, 11086ms total)
T18FC 6615:278 JLINK_WriteReg(R1, 0x00000400)  returns 0x00 (0000ms, 11086ms total)
T18FC 6615:278 JLINK_WriteReg(R2, 0x10000190)  returns 0x00 (0000ms, 11086ms total)
T18FC 6615:278 JLINK_WriteReg(R3, 0x00000000)  returns 0x00 (0000ms, 11086ms total)
T18FC 6615:278 JLINK_WriteReg(R4, 0x00000000)  returns 0x00 (0000ms, 11086ms total)
T18FC 6615:278 JLINK_WriteReg(R5, 0x00000000)  returns 0x00 (0000ms, 11086ms total)
T18FC 6615:278 JLINK_WriteReg(R6, 0x00000000)  returns 0x00 (0000ms, 11086ms total)
T18FC 6615:278 JLINK_WriteReg(R7, 0x00000000)  returns 0x00 (0000ms, 11086ms total)
T18FC 6615:278 JLINK_WriteReg(R8, 0x00000000)  returns 0x00 (0000ms, 11086ms total)
T18FC 6615:278 JLINK_WriteReg(R9, 0x10000168)  returns 0x00 (0000ms, 11086ms total)
T18FC 6615:278 JLINK_WriteReg(R10, 0x00000000)  returns 0x00 (0000ms, 11086ms total)
T18FC 6615:278 JLINK_WriteReg(R11, 0x00000000)  returns 0x00 (0000ms, 11086ms total)
T18FC 6615:278 JLINK_WriteReg(R12, 0x00000000)  returns 0x00 (0000ms, 11086ms total)
T18FC 6615:278 JLINK_WriteReg(R13 (SP), 0x10000800)  returns 0x00 (0000ms, 11086ms total)
T18FC 6615:278 JLINK_WriteReg(R14, 0x10000001)  returns 0x00 (0000ms, 11086ms total)
T18FC 6615:278 JLINK_WriteReg(R15 (PC), 0x100000E6)  returns 0x00 (0000ms, 11086ms total)
T18FC 6615:278 JLINK_WriteReg(XPSR, 0x01000000)  returns 0x00 (0000ms, 11086ms total)
T18FC 6615:278 JLINK_WriteReg(MSP, 0x10000800)  returns 0x00 (0000ms, 11086ms total)
T18FC 6615:278 JLINK_WriteReg(PSP, 0x10000800)  returns 0x00 (0000ms, 11086ms total)
T18FC 6615:278 JLINK_WriteReg(CFBP, 0x00000000)  returns 0x00 (0000ms, 11086ms total)
T18FC 6615:278 JLINK_SetBPEx(Addr = 0x10000000, Type = 0xFFFFFFF2)  returns 0x0000000F (0000ms, 11086ms total)
T18FC 6615:278 JLINK_Go() -- CPU_WriteMem(4 bytes @ 0xE0002000) -- CPU_ReadMem(4 bytes @ 0xE0001000) -- CPU_WriteMem(4 bytes @ 0xE0001000) (0004ms, 11090ms total)
T18FC 6615:282 JLINK_IsHalted()  returns FALSE (0001ms, 11091ms total)
T18FC 6615:295 JLINK_IsHalted()  returns TRUE (0002ms, 11092ms total)
